time	V(quada)	V(quadb)
0.000000000000000e+00	5.941129e-05	5.941723e-27
3.571428470421675e-11	5.941130e-05	3.268074e-12
7.142856940843349e-11	5.941130e-05	5.478922e-12
1.071428541126502e-10	5.941130e-05	6.632543e-12
1.428571388168670e-10	5.941130e-05	6.728938e-12
1.785714235210837e-10	5.941130e-05	5.768106e-12
2.142857082253005e-10	5.941130e-05	3.750048e-12
2.499999929295171e-10	5.941129e-05	6.747638e-13
1.936000000000000e-07	5.957853e-05	-1.674703e-07
2.114600000000000e-07	5.959876e-05	-1.876445e-07
2.223010000000000e-07	5.960810e-05	-1.969462e-07
2.225510000000000e-07	5.960828e-05	-1.971337e-07
2.226764793049749e-07	5.960837e-05	-1.972256e-07
2.227078491312186e-07	5.960840e-05	-1.972451e-07
2.227705887837060e-07	5.960844e-05	-1.972350e-07
2.228434599790394e-07	5.960845e-05	-1.970646e-07
2.228809542056657e-07	5.960840e-05	-1.967305e-07
2.229208818527270e-07	5.960825e-05	-1.959073e-07
2.229425168428028e-07	5.960807e-05	-1.949748e-07
2.229681319880380e-07	5.960768e-05	-1.928714e-07
2.229907229107951e-07	5.960705e-05	-1.894586e-07
2.230126983508262e-07	5.960591e-05	-1.832292e-07
2.230355186533677e-07	5.960369e-05	-1.708177e-07
2.230598590432626e-07	5.959912e-05	-1.449795e-07
2.230847243970385e-07	5.958978e-05	-9.285468e-08
2.231109400187677e-07	5.956995e-05	1.444299e-08
2.231384556487900e-07	5.952784e-05	2.294579e-07
2.231686332431537e-07	5.945397e-05	5.918066e-07
2.231728821187331e-07	5.943900e-05	6.623656e-07
2.231813798698919e-07	5.939911e-05	8.435058e-07
2.231983753722094e-07	5.929150e-05	1.305085e-06
2.232257219638956e-07	5.900035e-05	2.412226e-06
2.232767375036096e-07	5.801079e-05	5.662702e-06
2.233328986154087e-07	5.584384e-05	1.154743e-05
2.234202150321500e-07	4.945203e-05	2.605557e-05
2.235185966300926e-07	3.684627e-05	5.036866e-05
2.236313225540520e-07	1.358053e-05	8.950284e-05
2.237555827045597e-07	-2.447920e-05	1.467475e-04
2.238983605727088e-07	-8.691039e-05	2.320130e-04
2.241097828043046e-07	-2.128655e-04	3.915790e-04
2.243405854105237e-07	-3.887551e-04	6.031886e-04
2.245120503257485e-07	-5.426958e-04	7.829652e-04
2.245544457590617e-07	-5.862831e-04	8.327778e-04
2.245974973640844e-07	-6.324413e-04	8.852069e-04
2.246455094753431e-07	-6.856380e-04	9.453547e-04
2.247022668408653e-07	-7.509752e-04	1.018852e-03
2.247680080833174e-07	-8.299720e-04	1.107228e-03
2.248489962768916e-07	-9.331680e-04	1.221871e-03
2.250109726640400e-07	-1.159679e-03	1.471033e-03
2.253349254383368e-07	-1.670416e-03	2.026969e-03
2.256781750321277e-07	-2.285689e-03	2.691302e-03
2.259387732896025e-07	-2.815888e-03	3.261925e-03
2.261765953766138e-07	-3.345017e-03	3.831891e-03
2.261954895355259e-07	-3.389644e-03	3.880107e-03
2.262332778533502e-07	-3.482273e-03	3.980421e-03
2.262814824077640e-07	-3.602495e-03	4.110736e-03
2.263293675410899e-07	-3.724620e-03	4.243220e-03
2.263836835648032e-07	-3.866652e-03	4.397362e-03
2.264422727524608e-07	-4.024072e-03	4.568200e-03
2.265078589499950e-07	-4.206310e-03	4.765861e-03
2.266099423314176e-07	-4.504840e-03	5.089136e-03
2.268141090942626e-07	-5.158338e-03	5.794281e-03
2.272224426199527e-07	-6.703618e-03	7.450505e-03
2.280391096713328e-07	-1.085109e-02	1.185049e-02
2.295992894807084e-07	-2.228327e-02	2.385858e-02
2.313139640968481e-07	-4.082489e-02	4.317516e-02
2.330930768712511e-07	-6.842142e-02	7.174794e-02
2.347206483528320e-07	-1.034745e-01	1.078595e-01
2.367169611208007e-07	-1.606674e-01	1.665462e-01
2.385577898139232e-07	-2.287126e-01	2.361358e-01
2.405258827965634e-07	-3.208024e-01	3.300396e-01
2.426694873959102e-07	-4.422473e-01	4.535906e-01
2.441246567006698e-07	-5.377890e-01	5.506129e-01
2.450120762442858e-07	-6.025980e-01	6.163265e-01
2.456985843015404e-07	-6.563239e-01	6.707351e-01
2.463559920567025e-07	-7.104231e-01	7.254744e-01
2.470423859615171e-07	-7.698674e-01	7.855816e-01
2.481879927689283e-07	-8.764445e-01	8.932568e-01
2.504792063837506e-07	-1.109295e+00	1.128280e+00
2.528069490681178e-07	-1.365115e+00	1.386286e+00
2.532303316261446e-07	-1.414993e+00	1.436557e+00
2.540770967421983e-07	-1.518925e+00	1.541270e+00
2.542887880212117e-07	-1.545409e+00	1.567948e+00
2.547121705792385e-07	-1.599619e+00	1.622546e+00
2.555589356952922e-07	-1.709586e+00	1.733285e+00
2.556058106952922e-07	-1.715791e+00	1.739532e+00
2.556683106952922e-07	-1.724108e+00	1.747905e+00
2.557933106952922e-07	-1.740815e+00	1.764727e+00
2.560433106952922e-07	-1.774371e+00	1.798509e+00
2.560486214331679e-07	-1.775087e+00	1.799229e+00
2.560592429089194e-07	-1.776521e+00	1.800673e+00
2.560804858604225e-07	-1.779393e+00	1.803564e+00
2.561092962118872e-07	-1.783290e+00	1.807487e+00
2.561311501499162e-07	-1.786249e+00	1.810466e+00
2.561520377527329e-07	-1.789079e+00	1.813315e+00
2.561730147844511e-07	-1.791924e+00	1.816179e+00
2.561937861762277e-07	-1.794743e+00	1.819017e+00
2.562207061389712e-07	-1.798401e+00	1.822699e+00
2.562671034871071e-07	-1.804714e+00	1.829053e+00
2.563226557124101e-07	-1.812285e+00	1.836675e+00
2.563820301291593e-07	-1.820396e+00	1.844839e+00
2.564705953213572e-07	-1.832537e+00	1.857059e+00
2.566477257057528e-07	-1.856970e+00	1.881650e+00
2.570019864745442e-07	-1.906421e+00	1.931416e+00
2.577105080121270e-07	-2.006417e+00	2.032040e+00
2.577110673122579e-07	-2.006497e+00	2.032120e+00
2.577116266123888e-07	-2.006576e+00	2.032201e+00
2.577121859125197e-07	-2.006656e+00	2.032281e+00
2.577127452126506e-07	-2.006737e+00	2.032362e+00
2.577133045127815e-07	-2.006817e+00	2.032442e+00
2.577138638129125e-07	-2.006897e+00	2.032523e+00
2.577144231130434e-07	-2.006978e+00	2.032604e+00
2.577180026338812e-07	-2.007491e+00	2.033120e+00
2.577753770086125e-07	-2.015723e+00	2.041404e+00
2.578327513833436e-07	-2.023974e+00	2.049705e+00
2.578901257580748e-07	-2.032242e+00	2.058024e+00
2.579475001328060e-07	-2.040528e+00	2.066361e+00
2.580048745075372e-07	-2.048832e+00	2.074715e+00
2.580622488822684e-07	-2.057154e+00	2.083088e+00
2.581196232569996e-07	-2.065494e+00	2.091478e+00
2.583083955419323e-07	-2.093083e+00	2.119233e+00
2.586859401117976e-07	-2.148627e+00	2.175108e+00
2.587803262542639e-07	-2.162615e+00	2.189179e+00
2.589690985391966e-07	-2.190827e+00	2.217556e+00
2.593466431090620e-07	-2.247594e+00	2.274652e+00
2.594410292515283e-07	-2.261873e+00	2.289014e+00
2.594646257871449e-07	-2.265459e+00	2.292620e+00
2.595118188583781e-07	-2.272640e+00	2.299842e+00
2.596062050008444e-07	-2.287020e+00	2.314305e+00
2.596145965533545e-07	-2.288301e+00	2.315593e+00
2.596313796583746e-07	-2.290864e+00	2.318171e+00
2.596649458684148e-07	-2.295995e+00	2.323331e+00
2.596971848693268e-07	-2.300927e+00	2.328290e+00
2.597007933952951e-07	-2.301479e+00	2.328846e+00
2.597080104472318e-07	-2.302584e+00	2.329957e+00
2.597224445511051e-07	-2.304795e+00	2.332181e+00
2.597513127588516e-07	-2.309221e+00	2.336631e+00
2.597795640609396e-07	-2.313555e+00	2.340990e+00
2.598148842191139e-07	-2.318980e+00	2.346445e+00
2.598611855650465e-07	-2.326100e+00	2.353606e+00
2.599145677434853e-07	-2.334323e+00	2.361875e+00
2.599803209702279e-07	-2.344474e+00	2.372083e+00
2.601048720687645e-07	-2.363776e+00	2.391493e+00
2.603539742658378e-07	-2.402664e+00	2.430596e+00
2.608521786599843e-07	-2.480993e+00	2.509354e+00
2.608963899237806e-07	-2.487992e+00	2.516391e+00
2.609848124513731e-07	-2.502075e+00	2.530550e+00
2.611616575065583e-07	-2.530307e+00	2.558933e+00
2.611773509497638e-07	-2.532818e+00	2.561458e+00
2.612087378361750e-07	-2.537851e+00	2.566518e+00
2.612715116089972e-07	-2.547929e+00	2.576650e+00
2.613679975295143e-07	-2.563450e+00	2.592252e+00
2.614644834500313e-07	-2.579021e+00	2.607906e+00
2.615609693705484e-07	-2.594644e+00	2.623611e+00
2.616574552910655e-07	-2.610318e+00	2.639368e+00
2.617539412115826e-07	-2.626044e+00	2.655176e+00
2.618504271320996e-07	-2.641821e+00	2.671035e+00
2.619469130526167e-07	-2.657649e+00	2.686945e+00
2.623778324038904e-07	-2.729047e+00	2.758708e+00
2.632396711064379e-07	-2.874023e+00	2.904410e+00
2.638720306760724e-07	-2.982258e+00	3.013181e+00
2.644387108733206e-07	-3.081086e+00	3.112498e+00
2.650829770919286e-07	-3.195120e+00	3.227101e+00
2.653704074795807e-07	-3.246620e+00	3.278856e+00
2.656311484949564e-07	-3.293796e+00	3.326258e+00
2.658617583923208e-07	-3.335807e+00	3.368466e+00
2.661148576237711e-07	-3.382216e+00	3.415089e+00
2.663745910638233e-07	-3.430175e+00	3.463264e+00
2.667229435346177e-07	-3.495015e+00	3.528392e+00
2.671441747547170e-07	-3.574230e+00	3.607953e+00
2.677849938646334e-07	-3.696389e+00	3.730631e+00
2.686358960162122e-07	-3.860824e+00	3.895740e+00
2.690571067243440e-07	-3.943210e+00	3.978441e+00
2.692907680053168e-07	-3.989308e+00	4.024693e+00
2.694188243219148e-07	-4.014678e+00	4.050142e+00
2.695453466918996e-07	-4.039810e+00	4.075352e+00
2.696529733900814e-07	-4.061234e+00	4.096848e+00
2.697686637236086e-07	-4.084313e+00	4.120006e+00
2.698741153294572e-07	-4.105394e+00	4.141161e+00
2.699854878365614e-07	-4.127709e+00	4.163555e+00
2.701003338647661e-07	-4.150771e+00	4.186700e+00
2.702178852959480e-07	-4.174434e+00	4.210449e+00
2.703625853585798e-07	-4.203639e+00	4.239758e+00
2.704987392607107e-07	-4.231199e+00	4.267418e+00
2.706833868192342e-07	-4.268697e+00	4.305051e+00
2.708604852502859e-07	-4.304795e+00	4.341278e+00
2.711010865497847e-07	-4.354045e+00	4.390704e+00
2.713477850592030e-07	-4.404791e+00	4.441629e+00
2.716715227704534e-07	-4.471766e+00	4.508838e+00
2.720266016608702e-07	-4.545716e+00	4.583043e+00
2.724741005677469e-07	-4.639648e+00	4.677294e+00
2.729866419664572e-07	-4.748238e+00	4.786246e+00
2.736488137223818e-07	-4.890151e+00	4.928622e+00
2.745190651124329e-07	-5.079451e+00	5.118523e+00
2.757882782957161e-07	-5.361171e+00	5.401101e+00
2.776674226956975e-07	-5.789624e+00	5.830782e+00
2.802018602613455e-07	-6.386590e+00	6.429336e+00
2.830094993174298e-07	-7.072304e+00	7.116711e+00
2.860672808026475e-07	-7.846498e+00	7.892595e+00
2.888937988970064e-07	-8.586560e+00	8.634104e+00
2.918460489808627e-07	-9.383349e+00	9.432276e+00
2.948008180760320e-07	-1.020264e+01	1.025282e+01
2.979809700411527e-07	-1.110632e+01	1.115769e+01
3.012862482308737e-07	-1.206641e+01	1.211886e+01
3.048542516081869e-07	-1.312325e+01	1.317667e+01
3.087649605326927e-07	-1.430112e+01	1.435535e+01
3.133197175435859e-07	-1.569136e+01	1.574622e+01
3.193301813431399e-07	-1.753900e+01	1.759411e+01
3.278236158586017e-07	-2.012543e+01	2.017980e+01
3.413858871415064e-07	-2.410442e+01	2.415546e+01
3.539813605253316e-07	-2.749527e+01	2.754100e+01
3.678498302203069e-07	-3.078879e+01	3.082652e+01
3.747474169078367e-07	-3.222422e+01	3.225725e+01
3.762648266249405e-07	-3.250308e+01	3.253497e+01
3.792996460591481e-07	-3.300850e+01	3.303801e+01
3.839903611315848e-07	-3.370803e+01	3.373372e+01
3.900600000000000e-07	-3.451618e+01	3.453677e+01
3.906669638868416e-07	-3.458284e+01	3.460289e+01
3.913070812865167e-07	-3.465259e+01	3.467209e+01
3.913517282350584e-07	-3.465740e+01	3.467685e+01
3.914410221321418e-07	-3.466690e+01	3.468628e+01
3.916196099263085e-07	-3.468577e+01	3.470499e+01
3.919767855146421e-07	-3.472292e+01	3.474183e+01
3.926911366913091e-07	-3.479484e+01	3.481311e+01
3.941198390446433e-07	-3.492912e+01	3.494614e+01
3.969772437513116e-07	-3.515903e+01	3.517348e+01
4.026920531646483e-07	-3.550777e+01	3.551700e+01
4.079200000000000e-07	-3.573404e+01	3.573845e+01
4.084427946835352e-07	-3.574381e+01	3.574772e+01
4.094883840506056e-07	-3.575905e+01	3.576199e+01
4.122273574682815e-07	-3.578017e+01	3.578056e+01
4.124773574682815e-07	-3.577982e+01	3.577997e+01
4.129773574682815e-07	-3.577850e+01	3.577819e+01
4.130628109066819e-07	-3.577817e+01	3.577778e+01
4.130841742662820e-07	-3.577807e+01	3.577766e+01
4.131269009854821e-07	-3.577786e+01	3.577741e+01
4.131771885877883e-07	-3.577761e+01	3.577711e+01
4.132270408971492e-07	-3.577734e+01	3.577679e+01
4.132861725747028e-07	-3.577701e+01	3.577641e+01
4.133247767987054e-07	-3.577678e+01	3.577615e+01
4.133588367764533e-07	-3.577658e+01	3.577591e+01
4.133928110504988e-07	-3.577637e+01	3.577567e+01
4.134469572812036e-07	-3.577601e+01	3.577526e+01
4.135232974914677e-07	-3.577549e+01	3.577467e+01
4.136112162202560e-07	-3.577485e+01	3.577395e+01
4.137177356668775e-07	-3.577402e+01	3.577302e+01
4.138420533933072e-07	-3.577298e+01	3.577186e+01
4.140057167561866e-07	-3.577147e+01	3.577020e+01
4.142113535033177e-07	-3.576937e+01	3.576790e+01
4.145089948943234e-07	-3.576589e+01	3.576415e+01
4.149396790576586e-07	-3.576011e+01	3.575797e+01
4.153539924440124e-07	-3.575374e+01	3.575121e+01
4.156861485122568e-07	-3.574797e+01	3.574513e+01
4.160333257789966e-07	-3.574144e+01	3.573827e+01
4.160535432674162e-07	-3.574104e+01	3.573785e+01
4.160939782442554e-07	-3.574021e+01	3.573699e+01
4.161542937482166e-07	-3.573897e+01	3.573569e+01
4.162096283056000e-07	-3.573781e+01	3.573447e+01
4.162838802476137e-07	-3.573623e+01	3.573283e+01
4.163577958510278e-07	-3.573462e+01	3.573115e+01
4.164596188759701e-07	-3.573237e+01	3.572880e+01
4.165346466229818e-07	-3.573067e+01	3.572704e+01
4.166037928834198e-07	-3.572909e+01	3.572538e+01
4.166705355433347e-07	-3.572753e+01	3.572376e+01
4.167563836970706e-07	-3.572549e+01	3.572164e+01
4.168529965426648e-07	-3.572313e+01	3.571920e+01
4.170462222338532e-07	-3.571823e+01	3.571411e+01
4.174326736162300e-07	-3.570767e+01	3.570318e+01
4.182055763809837e-07	-3.568354e+01	3.567831e+01
4.197513819104911e-07	-3.562630e+01	3.561958e+01
4.213484298603648e-07	-3.555336e+01	3.554507e+01
4.237550806302357e-07	-3.541693e+01	3.540625e+01
4.261401107888897e-07	-3.525388e+01	3.524077e+01
4.280059996390905e-07	-3.510319e+01	3.508812e+01
4.299286966202228e-07	-3.492523e+01	3.490811e+01
4.317264911098480e-07	-3.473513e+01	3.471603e+01
4.347743956607009e-07	-3.436452e+01	3.434195e+01
4.380750186904009e-07	-3.390124e+01	3.387477e+01
4.414264213356671e-07	-3.337410e+01	3.334354e+01
4.418177152915607e-07	-3.330720e+01	3.327615e+01
4.426003032033480e-07	-3.316506e+01	3.313301e+01
4.441654790269226e-07	-3.287211e+01	3.283804e+01
4.445567729828162e-07	-3.279627e+01	3.276168e+01
4.453393608946035e-07	-3.264045e+01	3.260483e+01
4.467088897402312e-07	-3.235656e+01	3.231911e+01
4.469045367181780e-07	-3.231499e+01	3.227728e+01
4.473080586101933e-07	-3.222819e+01	3.218993e+01
4.473814262269234e-07	-3.221225e+01	3.217390e+01
4.474792497158968e-07	-3.219092e+01	3.215243e+01
4.476748966938436e-07	-3.214812e+01	3.210937e+01
4.476810106619044e-07	-3.214679e+01	3.210802e+01
4.476932385980261e-07	-3.214410e+01	3.210532e+01
4.477176944702695e-07	-3.213872e+01	3.209990e+01
4.477666062147562e-07	-3.212794e+01	3.208906e+01
4.478644297037296e-07	-3.210636e+01	3.206734e+01
4.478731142974146e-07	-3.210444e+01	3.206541e+01
4.478904834847847e-07	-3.210059e+01	3.206154e+01
4.479252218595248e-07	-3.209290e+01	3.205380e+01
4.479532492736409e-07	-3.208669e+01	3.204755e+01
4.479566123890269e-07	-3.208595e+01	3.204680e+01
4.479633386197987e-07	-3.208445e+01	3.204530e+01
4.479767910813423e-07	-3.208147e+01	3.204230e+01
4.480024177670849e-07	-3.207578e+01	3.203657e+01
4.480281363969125e-07	-3.207006e+01	3.203082e+01
4.480622665367484e-07	-3.206246e+01	3.202317e+01
4.481091462318904e-07	-3.205202e+01	3.201266e+01
4.481632649674510e-07	-3.203994e+01	3.200051e+01
4.485814172726711e-07	-3.194564e+01	3.190564e+01
4.490524835288521e-07	-3.183824e+01	3.179759e+01
4.490672043493577e-07	-3.183486e+01	3.179419e+01
4.490966459903691e-07	-3.182807e+01	3.178736e+01
4.491555292723917e-07	-3.181447e+01	3.177368e+01
4.492732958364369e-07	-3.178722e+01	3.174626e+01
4.492836560040337e-07	-3.178482e+01	3.174385e+01
4.493043763392271e-07	-3.178000e+01	3.173901e+01
4.493458170096141e-07	-3.177037e+01	3.172932e+01
4.494202473274949e-07	-3.175304e+01	3.171188e+01
4.494618060233648e-07	-3.174335e+01	3.170214e+01
4.494661923615339e-07	-3.174233e+01	3.170111e+01
4.494749650378721e-07	-3.174028e+01	3.169905e+01
4.494925103905485e-07	-3.173618e+01	3.169492e+01
4.495143677108827e-07	-3.173107e+01	3.168979e+01
4.495427534072051e-07	-3.172443e+01	3.168310e+01
4.495930975503632e-07	-3.171264e+01	3.167124e+01
4.496245616335363e-07	-3.170526e+01	3.166382e+01
4.496802964380703e-07	-3.169217e+01	3.165065e+01
4.498628782874354e-07	-3.164909e+01	3.160731e+01
4.500454601368006e-07	-3.160575e+01	3.156372e+01
4.502280419861657e-07	-3.156216e+01	3.151988e+01
4.504106238355309e-07	-3.151832e+01	3.147578e+01
4.505932056848960e-07	-3.147423e+01	3.143143e+01
4.507757875342612e-07	-3.142988e+01	3.138682e+01
4.509583693836263e-07	-3.138527e+01	3.134196e+01
4.510898014570807e-07	-3.135300e+01	3.130950e+01
4.512212335305351e-07	-3.132056e+01	3.127688e+01
4.513526656039895e-07	-3.128797e+01	3.124410e+01
4.514840976774439e-07	-3.125521e+01	3.121117e+01
4.516155297508983e-07	-3.122230e+01	3.117807e+01
4.517469618243526e-07	-3.118923e+01	3.114481e+01
4.518783938978070e-07	-3.115600e+01	3.111140e+01
4.525072263831681e-07	-3.099451e+01	3.094900e+01
4.537648913538904e-07	-3.066350e+01	3.061618e+01
4.547404347105660e-07	-3.039947e+01	3.035074e+01
4.555511698776199e-07	-3.017384e+01	3.012387e+01
4.561986297479996e-07	-2.998931e+01	2.993826e+01
4.567981054182598e-07	-2.981462e+01	2.976246e+01
4.573621321894608e-07	-2.964631e+01	2.959300e+01
4.581170917795004e-07	-2.941495e+01	2.935999e+01
4.589029329870150e-07	-2.916801e+01	2.911125e+01
4.592841536486634e-07	-2.904566e+01	2.898800e+01
4.594397420329332e-07	-2.899500e+01	2.893699e+01
4.595284636131706e-07	-2.896591e+01	2.890770e+01
4.596122325316670e-07	-2.893834e+01	2.887993e+01
4.596917380179622e-07	-2.891209e+01	2.885350e+01
4.597634540432068e-07	-2.888834e+01	2.882959e+01
4.598340224315502e-07	-2.886489e+01	2.880598e+01
4.599371681552477e-07	-2.883051e+01	2.877136e+01
4.600482744202390e-07	-2.879332e+01	2.873392e+01
4.602009111356133e-07	-2.874195e+01	2.868220e+01
4.603744325512843e-07	-2.868318e+01	2.862301e+01
4.606140076977056e-07	-2.860138e+01	2.854065e+01
4.608666476139458e-07	-2.851420e+01	2.845287e+01
4.613004836073662e-07	-2.836249e+01	2.830010e+01
4.617453871570525e-07	-2.820411e+01	2.814065e+01
4.624536476416169e-07	-2.794732e+01	2.788213e+01
4.627972920938914e-07	-2.782075e+01	2.775473e+01
4.629916599849389e-07	-2.774827e+01	2.768180e+01
4.631043615629531e-07	-2.770597e+01	2.763924e+01
4.631997463063201e-07	-2.767002e+01	2.760308e+01
4.632955777584769e-07	-2.763379e+01	2.756663e+01
4.633830710485006e-07	-2.760060e+01	2.753325e+01
4.634863633598090e-07	-2.756128e+01	2.749370e+01
4.636412138680454e-07	-2.750209e+01	2.743417e+01
4.637902624191152e-07	-2.744484e+01	2.737659e+01
4.640016848528947e-07	-2.736315e+01	2.729444e+01
4.642260333356237e-07	-2.727580e+01	2.720660e+01
4.645993512087089e-07	-2.712913e+01	2.705912e+01
4.649578187318973e-07	-2.698647e+01	2.691568e+01
4.656747537782740e-07	-2.669615e+01	2.662382e+01
4.665377220912647e-07	-2.633725e+01	2.626308e+01
4.682636587172461e-07	-2.559153e+01	2.551373e+01
4.704411595593464e-07	-2.460545e+01	2.452318e+01
4.728577859994451e-07	-2.344992e+01	2.336283e+01
4.754941550095778e-07	-2.211654e+01	2.202437e+01
4.783427139678948e-07	-2.059616e+01	2.049871e+01
4.810343668853931e-07	-1.908527e+01	1.898305e+01
4.837474289420309e-07	-1.749084e+01	1.738404e+01
4.863902604843322e-07	-1.587238e+01	1.576135e+01
4.890979493402618e-07	-1.415104e+01	1.403592e+01
4.917627895738710e-07	-1.239847e+01	1.227957e+01
4.944701510308242e-07	-1.055879e+01	1.043632e+01
4.978793832703364e-07	-8.166681e+00	8.040110e+00
5.018147911549625e-07	-5.312417e+00	5.181677e+00
5.070843506502695e-07	-1.357526e+00	1.222194e+00
5.139462995226638e-07	3.961965e+00	-4.101489e+00
5.242160768451619e-07	1.208138e+01	-1.222308e+01
5.415482445101223e-07	2.582814e+01	-2.596739e+01
5.422543929593116e-07	2.638228e+01	-2.652122e+01
5.436666898576903e-07	2.747506e+01	-2.761307e+01
5.464912836544475e-07	2.963130e+01	-2.976718e+01
5.513555122754625e-07	3.322540e+01	-3.335678e+01
5.610839695174924e-07	3.999933e+01	-4.011940e+01
5.709580000000000e-07	4.645267e+01	-4.655924e+01
5.719454030482507e-07	4.702880e+01	-4.713374e+01
5.739202091447523e-07	4.815316e+01	-4.825479e+01
5.778698213377554e-07	5.029944e+01	-5.039416e+01
5.819002762268763e-07	5.231442e+01	-5.240167e+01
5.888179999999999e-07	5.549998e+01	-5.557383e+01
